# do run.do
# vsim -voptargs="+acc" -L design -coverage tb_top.tb_top -logfile run.log "+UVM_TESTNAME=AXI_Burst_Read_after_Write_Test" 
# Start time: 12:12:29 on Aug 21,2024
# ** Note: (vsim-8009) Loading existing optimized design _opt1
# //  Questa Sim-64
# //  Version 10.6c win64 Jul 26 2017
# //
# //  Copyright 1991-2017 Mentor Graphics Corporation
# //  All Rights Reserved.
# //
# //  QuestaSim and its associated documentation contain trade
# //  secrets and commercial or financial information that are the property of
# //  Mentor Graphics Corporation and are privileged, confidential,
# //  and exempt from disclosure under the Freedom of Information Act,
# //  5 U.S.C. Section 552. Furthermore, this information
# //  is prohibited from disclosure under the Trade Secrets Act,
# //  18 U.S.C. Section 1905.
# //
# Loading sv_std.std
# Loading mtiUvm.uvm_pkg
# Loading work.tb_top_sv_unit(fast)
# Loading work.tb_top(fast)
# Loading work.AXI_Interface(fast)
# Loading work.SDRAM_Interface(fast)
# Loading design.AXI2SDRAM(fast)
# Loading design.AXIL_Slave_FSM(fast)
# Loading design.FIFO(fast)
# Loading design.async_fifo(fast)
# Loading design.async_fifo_1(fast)
# Loading design.fifo_sdram_cntrl(fast)
# Loading design.sdram_controller(fast)
# Loading design.mt48lc16m16a2(fast)
# Loading mtiUvm.questa_uvm_pkg(fast)
# Loading work.AXI_Interface(fast)
# Loading work.SDRAM_Interface(fast)
# ** Warning: (vsim-3839) ../DV/TB/tb_top.sv(28): Variable '/tb_top/CKE', driven via a port connection, is multiply driven. See ../DV/TB/tb_top.sv(38).
#    Time: 0 ps  Iteration: 0  Instance: /tb_top File: ../DV/TB/tb_top.sv
# ** Warning: (vsim-3839) ../DV/TB/tb_top.sv(25): Variable '/tb_top/CKE', driven via a port connection, is multiply driven. See ../DV/TB/tb_top.sv(38).
#    Time: 0 ps  Iteration: 0  Instance: /tb_top File: ../DV/TB/tb_top.sv
# ** Warning: (vsim-3839) ../DV/TB/tb_top.sv(24): Variable '/tb_top/CLK', driven via a port connection, is multiply driven. See ../DV/TB/tb_top.sv(38).
#    Time: 0 ps  Iteration: 0  Instance: /tb_top File: ../DV/TB/tb_top.sv
# ** Warning: (vsim-3839) ../DV/TB/tb_top.sv(18): Variable '/tb_top/CLK', driven via a port connection, is multiply driven. See ../DV/TB/tb_top.sv(38).
#    Time: 0 ps  Iteration: 0  Instance: /tb_top File: ../DV/TB/tb_top.sv
# Loading C:/questasim64_10.6c/uvm-1.1d\win64\uvm_dpi.dll
# ----------------------------------------------------------------
# UVM-1.1d
# (C) 2007-2013 Mentor Graphics Corporation
# (C) 2007-2013 Cadence Design Systems, Inc.
# (C) 2006-2013 Synopsys, Inc.
# (C) 2011-2013 Cypress Semiconductor Corp.
# ----------------------------------------------------------------
# 
#   ***********       IMPORTANT RELEASE NOTES         ************
# 
#   You are using a version of the UVM library that has been compiled
#   with `UVM_NO_DEPRECATED undefined.
#   See http://www.eda.org/svdb/view.php?id=3313 for more details.
# 
#   You are using a version of the UVM library that has been compiled
#   with `UVM_OBJECT_MUST_HAVE_CONSTRUCTOR undefined.
#   See http://www.eda.org/svdb/view.php?id=3770 for more details.
# 
#       (Specify +UVM_NO_RELNOTES to turn off this notice)
# 
# UVM_INFO verilog_src/questa_uvm_pkg-1.2/src/questa_uvm_pkg.sv(215) @ 0: reporter [Questa UVM] QUESTA_UVM-1.2.3
# UVM_INFO verilog_src/questa_uvm_pkg-1.2/src/questa_uvm_pkg.sv(217) @ 0: reporter [Questa UVM]  questa_uvm::init(+struct)
# UVM_INFO @ 0.0 ns: reporter [RNTST] Running test AXI_Burst_Read_after_Write_Test...
# UVM_INFO ..\DV\TB\AXI_SDRAM_Test.sv(155) @ 0.0 ns: uvm_test_top [uvm_test_top] -------------------------AXI_SDRAM_Test_build-------------------------------
# UVM_INFO ..\DV\TB\..\AXI\AXI_Base_Sequence.sv(10) @ 0.0 ns: reporter@@AXI_Burst_Read_after_Write_Sequence [AXI_Burst_Read_after_Write_Sequence] -------------------------AXI_base_Sequence_build-------------------------------
# UVM_INFO ..\DV\TB\..\AXI\AXI_Sequence.sv(192) @ 0.0 ns: reporter@@AXI_Burst_Read_after_Write_Sequence [AXI_Burst_Read_after_Write_Sequence] -------------------------AXI_Sequence_build-------------------------------
# UVM_INFO ..\DV\TB\AXI2SDRAM_Environment.sv(16) @ 0.0 ns: uvm_test_top.env [uvm_test_top.env] -------------------------AXI2SDRAM_Environment_build-------------------------------
# UVM_INFO ..\DV\TB\..\AXI\AXI_Agent.sv(15) @ 0.0 ns: uvm_test_top.env.axi_agt [uvm_test_top.env.axi_agt] -------------------------AXI_Agent_build-------------------------------
# UVM_INFO ..\DV\TB\..\AXI\AXI_Driver.sv(15) @ 0.0 ns: uvm_test_top.env.axi_agt.axi_drv [uvm_test_top.env.axi_agt.axi_drv] -------------------------AXI_Driver_build-------------------------------
# UVM_INFO ..\DV\TB\..\AXI\AXI_Monitor.sv(19) @ 0.0 ns: uvm_test_top.env.axi_agt.axi_mon [uvm_test_top.env.axi_agt.axi_mon] -------------------------AXI_Monitor_build-------------------------------
# UVM_INFO ..\DV\TB\AXI_SDRAM_Coverage.sv(66) @ 0.0 ns: uvm_test_top.env.axi_sd_cvg [uvm_test_top.env.axi_sd_cvg] -----------------COVERAGE Bulid Phase---------------------
# UVM_INFO ..\DV\TB\AXI_SDRAM_Scoreboard.sv(45) @ 0.0 ns: uvm_test_top.env.axi_sd_scb [uvm_test_top.env.axi_sd_scb] -----------------SCOREBOARD Bulid Phase---------------------
# UVM_INFO ..\DV\TB\..\SDRAM\SDRAM_Agent.sv(15) @ 0.0 ns: uvm_test_top.env.sdram_agt [uvm_test_top.env.sdram_agt] -------------------------SDRAM_Agent_build-------------------------------
# UVM_INFO ..\DV\TB\..\SDRAM\SDRAM_Monitor.sv(21) @ 0.0 ns: uvm_test_top.env.sdram_agt.sdm_mon [uvm_test_top.env.sdram_agt.sdm_mon] -------------------------SDRAM_Monitor_build-------------------------------
# UVM_INFO ..\DV\TB\..\AXI\AXI_Agent.sv(23) @ 0.0 ns: uvm_test_top.env.axi_agt [uvm_test_top.env.axi_agt] -------------------------AXI_Agent_connect-------------------------------
# UVM_INFO ..\DV\TB\..\SDRAM\SDRAM_Agent.sv(23) @ 0.0 ns: uvm_test_top.env.sdram_agt [uvm_test_top.env.sdram_agt] -------------------------SDRAM_Agent_connect-------------------------------
# UVM_WARNING @ 0.0 ns: uvm_test_top [UVM_DEPRECATED] build()/build_phase() has been called explicitly, outside of the phasing system. This usage of build is deprecated and may lead to unexpected behavior.
# UVM_INFO @ 0.0 ns: reporter [UVMTOP] UVM testbench topology:
# -------------------------------------------------------------------------
# Name                         Type                             Size  Value
# -------------------------------------------------------------------------
# uvm_test_top                 AXI_Burst_Read_after_Write_Test  -     @478 
#   env                        AXI2SDRAM_Environment            -     @485 
#     axi_agt                  AXI_Agent                        -     @496 
#       axi_drv                AXI_Driver                       -     @666 
#         rsp_port             uvm_analysis_port                -     @681 
#         seq_item_port        uvm_seq_item_pull_port           -     @673 
#       axi_mon                AXI_Monitor                      -     @689 
#         item_collected_port  uvm_analysis_port                -     @696 
#       axi_seq                AXI_Sequencer                    -     @557 
#         rsp_export           uvm_analysis_export              -     @564 
#         seq_item_export      uvm_seq_item_pull_imp            -     @658 
#         arbitration_queue    array                            0     -    
#         lock_queue           array                            0     -    
#         num_last_reqs        integral                         32    'd1  
#         num_last_rsps        integral                         32    'd1  
#     axi_sd_cvg               AXI_SDRAM_Coverage               -     @533 
#       analysis_imp_c         uvm_analysis_imp_port_c          -     @540 
#       analysis_imp_d         uvm_analysis_imp_port_d          -     @548 
#     axi_sd_scb               AXI_SDRAM_Scoreboard             -     @510 
#       analysis_imp_a         uvm_analysis_imp_port_a          -     @517 
#       analysis_imp_b         uvm_analysis_imp_port_b          -     @525 
#     sdram_agt                SDRAM_Agent                      -     @503 
#       sdm_mon                SDRAM_Monitor                    -     @716 
#         item_collected_port  uvm_analysis_port                -     @723 
# -------------------------------------------------------------------------
# 
# UVM_INFO ..\DV\TB\AXI_SDRAM_Test.sv(167) @ 0.0 ns: uvm_test_top [uvm_test_top] -------------------------AXI_SDRAM_Test_run_phase-------------------------------
# ** Error: ../Design/sdram_sim_model/mt48lc16m16a2.v(1122): $hold( posedge Clk:3 ns, Dqm:3 ns, 800 ps );
#    Time: 3 ns  Iteration: 3  Instance: /tb_top/SIM_Model
# ** Error: ../Design/sdram_sim_model/mt48lc16m16a2.v(1121): $hold( posedge Clk:3 ns, Ba:3 ns, 800 ps );
#    Time: 3 ns  Iteration: 3  Instance: /tb_top/SIM_Model
# ** Error: ../Design/sdram_sim_model/mt48lc16m16a2.v(1120): $hold( posedge Clk:3 ns, Addr:3 ns, 800 ps );
#    Time: 3 ns  Iteration: 3  Instance: /tb_top/SIM_Model
# ** Error: ../Design/sdram_sim_model/mt48lc16m16a2.v(1115): $hold( posedge Clk:3 ns, Cke:3 ns, 800 ps );
#    Time: 3 ns  Iteration: 3  Instance: /tb_top/SIM_Model
# ** Error: ../Design/sdram_sim_model/mt48lc16m16a2.v(1116): $hold( posedge Clk:3 ns, Cs_n:3 ns, 800 ps );
#    Time: 3 ns  Iteration: 3  Instance: /tb_top/SIM_Model
# ** Error: ../Design/sdram_sim_model/mt48lc16m16a2.v(1118): $hold( posedge Clk:3 ns, Ras_n:3 ns, 800 ps );
#    Time: 3 ns  Iteration: 3  Instance: /tb_top/SIM_Model
# ** Error: ../Design/sdram_sim_model/mt48lc16m16a2.v(1117): $hold( posedge Clk:3 ns, Cas_n:3 ns, 800 ps );
#    Time: 3 ns  Iteration: 3  Instance: /tb_top/SIM_Model
# ** Error: ../Design/sdram_sim_model/mt48lc16m16a2.v(1119): $hold( posedge Clk:3 ns, We_n:3 ns, 800 ps );
#    Time: 3 ns  Iteration: 3  Instance: /tb_top/SIM_Model
# ** Error: ../Design/sdram_sim_model/mt48lc16m16a2.v(1114): $period( posedge Clk:3 ns, :9 ns, 7 ns );
#    Time: 9 ns  Iteration: 1  Instance: /tb_top/SIM_Model
# ** Error: ../Design/sdram_sim_model/mt48lc16m16a2.v(1113): $period( negedge Clk:6 ns, :12 ns, 7 ns );
#    Time: 12 ns  Iteration: 1  Instance: /tb_top/SIM_Model
# ** Error: ../Design/sdram_sim_model/mt48lc16m16a2.v(1114): $period( posedge Clk:9 ns, :15 ns, 7 ns );
#    Time: 15 ns  Iteration: 2  Instance: /tb_top/SIM_Model
# UVM_INFO ..\DV\TB\..\AXI\AXI_Sequence.sv(210) @ 15.0 ns: reporter@@AXI_Burst_Read_after_Write_Sequence [uvm_test_top.env.axi_agt.axi_seq.axi_seq] ################################-AXI Generated Packet-############################
# UVM_INFO ..\DV\TB\..\AXI\AXI_Driver.sv(27) @ 15.0 ns: uvm_test_top.env.axi_agt.axi_drv [uvm_test_top.env.axi_agt.axi_drv] -------------------------AXI_Driver_packet#####-------------------------------
# -----------------------------------------------------------------------------------------
# Name                           Type        Size  Value                                   
# -----------------------------------------------------------------------------------------
# trans                          AXI_Packet  -     @739                                    
#   ARESETn                      integral    1     'h0                                     
#   ARADDR                       integral    32    'h0                                     
#   ARVALID                      integral    1     'h0                                     
#   ARREADY                      integral    1     'h0                                     
#   AWADDR                       integral    32    'h1150aa                                
#   AWVALID                      integral    1     'h1                                     
#   AWREADY                      integral    1     'h0                                     
#   RDATA                        integral    32    'h0                                     
#   RRESP                        integral    2     'h0                                     
#   RVALID                       integral    1     'h0                                     
#   RREADY                       integral    1     'h0                                     
#   WDATA                        integral    32    'haa005511                              
#   WSTRB                        integral    4     'hf                                     
#   WVALID                       integral    1     'h1                                     
#   WREADY                       integral    1     'h0                                     
#   BRESP                        integral    2     'h0                                     
#   BVALID                       integral    1     'h0                                     
#   BREADY                       integral    1     'h0                                     
#   begin_time                   time        64    15.0 ns                                 
#   depth                        int         32    'd2                                     
#   parent sequence (name)       string      7     axi_seq                                 
#   parent sequence (full name)  string      40    uvm_test_top.env.axi_agt.axi_seq.axi_seq
#   sequencer                    string      32    uvm_test_top.env.axi_agt.axi_seq        
# -----------------------------------------------------------------------------------------
# ** Error: ../Design/sdram_sim_model/mt48lc16m16a2.v(1113): $period( negedge Clk:12 ns, :18 ns, 7 ns );
#    Time: 18 ns  Iteration: 1  Instance: /tb_top/SIM_Model
# ** Error: ../Design/sdram_sim_model/mt48lc16m16a2.v(1114): $period( posedge Clk:15 ns, :21 ns, 7 ns );
#    Time: 21 ns  Iteration: 2  Instance: /tb_top/SIM_Model
# ** Error: ../Design/sdram_sim_model/mt48lc16m16a2.v(1113): $period( negedge Clk:18 ns, :24 ns, 7 ns );
#    Time: 24 ns  Iteration: 1  Instance: /tb_top/SIM_Model
# UVM_INFO ..\DV\TB\..\AXI\AXI_Monitor.sv(86) @ 27.0 ns: uvm_test_top.env.axi_agt.axi_mon [uvm_test_top.env.axi_agt.axi_mon] -------------------------Write_Packet_sampled-------------------------------
# ** Error: ../Design/sdram_sim_model/mt48lc16m16a2.v(1114): $period( posedge Clk:21 ns, :27 ns, 7 ns );
#    Time: 27 ns  Iteration: 2  Instance: /tb_top/SIM_Model
# ** Error: ../Design/sdram_sim_model/mt48lc16m16a2.v(1113): $period( negedge Clk:24 ns, :30 ns, 7 ns );
#    Time: 30 ns  Iteration: 1  Instance: /tb_top/SIM_Model
# UVM_INFO ..\DV\TB\..\AXI\AXI_Sequence.sv(210) @ 31.0 ns: reporter@@AXI_Burst_Read_after_Write_Sequence [uvm_test_top.env.axi_agt.axi_seq.axi_seq] ################################-AXI Generated Packet-############################
# UVM_INFO ..\DV\TB\..\AXI\AXI_Driver.sv(27) @ 31.0 ns: uvm_test_top.env.axi_agt.axi_drv [uvm_test_top.env.axi_agt.axi_drv] -------------------------AXI_Driver_packet#####-------------------------------
# -----------------------------------------------------------------------------------------
# Name                           Type        Size  Value                                   
# -----------------------------------------------------------------------------------------
# trans                          AXI_Packet  -     @768                                    
#   ARESETn                      integral    1     'h0                                     
#   ARADDR                       integral    32    'h0                                     
#   ARVALID                      integral    1     'h0                                     
#   ARREADY                      integral    1     'h0                                     
#   AWADDR                       integral    32    'h1150ac                                
#   AWVALID                      integral    1     'h1                                     
#   AWREADY                      integral    1     'h0                                     
#   RDATA                        integral    32    'h0                                     
#   RRESP                        integral    2     'h0                                     
#   RVALID                       integral    1     'h0                                     
#   RREADY                       integral    1     'h0                                     
#   WDATA                        integral    32    'haa005514                              
#   WSTRB                        integral    4     'hf                                     
#   WVALID                       integral    1     'h1                                     
#   WREADY                       integral    1     'h0                                     
#   BRESP                        integral    2     'h0                                     
#   BVALID                       integral    1     'h0                                     
#   BREADY                       integral    1     'h0                                     
#   begin_time                   time        64    31.0 ns                                 
#   depth                        int         32    'd2                                     
#   parent sequence (name)       string      7     axi_seq                                 
#   parent sequence (full name)  string      40    uvm_test_top.env.axi_agt.axi_seq.axi_seq
#   sequencer                    string      32    uvm_test_top.env.axi_agt.axi_seq        
# -----------------------------------------------------------------------------------------
# ** Error: ../Design/sdram_sim_model/mt48lc16m16a2.v(1114): $period( posedge Clk:27 ns, :33 ns, 7 ns );
#    Time: 33 ns  Iteration: 2  Instance: /tb_top/SIM_Model
# UVM_INFO ..\DV\TB\..\AXI\AXI_Monitor.sv(118) @ 35.0 ns: uvm_test_top.env.axi_agt.axi_mon [uvm_test_top.env.axi_agt.axi_mon] -------------------------Read_Packet_sampled-------------------------------
# UVM_INFO ..\DV\TB\..\AXI\AXI_Monitor.sv(45) @ 35.0 ns: uvm_test_top.env.axi_agt.axi_mon [uvm_test_top.env.axi_agt.axi_mon] -------------------------AXI_Monitor_data-------------------------------
# -----------------------------------------------
# Name               Type        Size  Value     
# -----------------------------------------------
# uvm_sequence_item  AXI_Packet  -     @705      
#   ARESETn          integral    1     'h0       
#   ARADDR           integral    32    'h0       
#   ARVALID          integral    1     'h0       
#   ARREADY          integral    1     'h0       
#   AWADDR           integral    32    'h1150aa  
#   AWVALID          integral    1     'h1       
#   AWREADY          integral    1     'h0       
#   RDATA            integral    32    'h0       
#   RRESP            integral    2     'h0       
#   RVALID           integral    1     'h0       
#   RREADY           integral    1     'h0       
#   WDATA            integral    32    'haa005511
#   WSTRB            integral    4     'h0       
#   WVALID           integral    1     'h1       
#   WREADY           integral    1     'h0       
#   BRESP            integral    2     'h0       
#   BVALID           integral    1     'h0       
#   BREADY           integral    1     'h1       
# -----------------------------------------------
# UVM_INFO ..\DV\TB\AXI_SDRAM_Scoreboard.sv(49) @ 35.0 ns: uvm_test_top.env.axi_sd_scb [AXI_SDRAM_Scoreboard]  Inside write_port_a method. Received axi_pkt On Analysis Imp Port#########################################################################################################
# UVM_INFO ..\DV\TB\AXI_SDRAM_Scoreboard.sv(50) @ 35.0 ns: uvm_test_top.env.axi_sd_scb [AXI_SDRAM_Scoreboard]  Printing inside scoreboard axi_pkt, 
#  -----------------------------------------------
# Name               Type        Size  Value     
# -----------------------------------------------
# uvm_sequence_item  AXI_Packet  -     @705      
#   ARESETn          integral    1     'h0       
#   ARADDR           integral    32    'h0       
#   ARVALID          integral    1     'h0       
#   ARREADY          integral    1     'h0       
#   AWADDR           integral    32    'h1150aa  
#   AWVALID          integral    1     'h1       
#   AWREADY          integral    1     'h0       
#   RDATA            integral    32    'h0       
#   RRESP            integral    2     'h0       
#   RVALID           integral    1     'h0       
#   RREADY           integral    1     'h0       
#   WDATA            integral    32    'haa005511
#   WSTRB            integral    4     'h0       
#   WVALID           integral    1     'h1       
#   WREADY           integral    1     'h0       
#   BRESP            integral    2     'h0       
#   BVALID           integral    1     'h0       
#   BREADY           integral    1     'h1       
# -----------------------------------------------
# 
# ** Error: ../Design/sdram_sim_model/mt48lc16m16a2.v(1113): $period( negedge Clk:30 ns, :36 ns, 7 ns );
#    Time: 36 ns  Iteration: 1  Instance: /tb_top/SIM_Model
# ** Error: ../Design/sdram_sim_model/mt48lc16m16a2.v(1114): $period( posedge Clk:33 ns, :39 ns, 7 ns );
#    Time: 39 ns  Iteration: 2  Instance: /tb_top/SIM_Model
# ** Error: ../Design/sdram_sim_model/mt48lc16m16a2.v(1113): $period( negedge Clk:36 ns, :42 ns, 7 ns );
#    Time: 42 ns  Iteration: 1  Instance: /tb_top/SIM_Model
# UVM_INFO ..\DV\TB\..\AXI\AXI_Monitor.sv(86) @ 43.0 ns: uvm_test_top.env.axi_agt.axi_mon [uvm_test_top.env.axi_agt.axi_mon] -------------------------Write_Packet_sampled-------------------------------
# ** Error: ../Design/sdram_sim_model/mt48lc16m16a2.v(1114): $period( posedge Clk:39 ns, :45 ns, 7 ns );
#    Time: 45 ns  Iteration: 2  Instance: /tb_top/SIM_Model
# UVM_INFO ..\DV\TB\..\AXI\AXI_Sequence.sv(210) @ 47.0 ns: reporter@@AXI_Burst_Read_after_Write_Sequence [uvm_test_top.env.axi_agt.axi_seq.axi_seq] ################################-AXI Generated Packet-############################
# UVM_INFO ..\DV\TB\..\AXI\AXI_Driver.sv(27) @ 47.0 ns: uvm_test_top.env.axi_agt.axi_drv [uvm_test_top.env.axi_agt.axi_drv] -------------------------AXI_Driver_packet#####-------------------------------
# -----------------------------------------------------------------------------------------
# Name                           Type        Size  Value                                   
# -----------------------------------------------------------------------------------------
# trans                          AXI_Packet  -     @772                                    
#   ARESETn                      integral    1     'h0                                     
#   ARADDR                       integral    32    'h0                                     
#   ARVALID                      integral    1     'h0                                     
#   ARREADY                      integral    1     'h0                                     
#   AWADDR                       integral    32    'h1150ae                                
#   AWVALID                      integral    1     'h1                                     
#   AWREADY                      integral    1     'h0                                     
#   RDATA                        integral    32    'h0                                     
#   RRESP                        integral    2     'h0                                     
#   RVALID                       integral    1     'h0                                     
#   RREADY                       integral    1     'h0                                     
#   WDATA                        integral    32    'haa005517                              
#   WSTRB                        integral    4     'hf                                     
#   WVALID                       integral    1     'h1                                     
#   WREADY                       integral    1     'h0                                     
#   BRESP                        integral    2     'h0                                     
#   BVALID                       integral    1     'h0                                     
#   BREADY                       integral    1     'h0                                     
#   begin_time                   time        64    47.0 ns                                 
#   depth                        int         32    'd2                                     
#   parent sequence (name)       string      7     axi_seq                                 
#   parent sequence (full name)  string      40    uvm_test_top.env.axi_agt.axi_seq.axi_seq
#   sequencer                    string      32    uvm_test_top.env.axi_agt.axi_seq        
# -----------------------------------------------------------------------------------------
# ** Error: ../Design/sdram_sim_model/mt48lc16m16a2.v(1113): $period( negedge Clk:42 ns, :48 ns, 7 ns );
#    Time: 48 ns  Iteration: 1  Instance: /tb_top/SIM_Model
# UVM_INFO ..\DV\TB\..\AXI\AXI_Monitor.sv(118) @ 51.0 ns: uvm_test_top.env.axi_agt.axi_mon [uvm_test_top.env.axi_agt.axi_mon] -------------------------Read_Packet_sampled-------------------------------
# UVM_INFO ..\DV\TB\..\AXI\AXI_Monitor.sv(45) @ 51.0 ns: uvm_test_top.env.axi_agt.axi_mon [uvm_test_top.env.axi_agt.axi_mon] -------------------------AXI_Monitor_data-------------------------------
# -----------------------------------------------
# Name               Type        Size  Value     
# -----------------------------------------------
# uvm_sequence_item  AXI_Packet  -     @705      
#   ARESETn          integral    1     'h0       
#   ARADDR           integral    32    'h0       
#   ARVALID          integral    1     'h0       
#   ARREADY          integral    1     'h0       
#   AWADDR           integral    32    'h1150ac  
#   AWVALID          integral    1     'h1       
#   AWREADY          integral    1     'h0       
#   RDATA            integral    32    'h0       
#   RRESP            integral    2     'h0       
#   RVALID           integral    1     'h0       
#   RREADY           integral    1     'h0       
#   WDATA            integral    32    'haa005514
#   WSTRB            integral    4     'h0       
#   WVALID           integral    1     'h1       
#   WREADY           integral    1     'h0       
#   BRESP            integral    2     'h0       
#   BVALID           integral    1     'h0       
#   BREADY           integral    1     'h1       
# -----------------------------------------------
# UVM_INFO ..\DV\TB\AXI_SDRAM_Scoreboard.sv(49) @ 51.0 ns: uvm_test_top.env.axi_sd_scb [AXI_SDRAM_Scoreboard]  Inside write_port_a method. Received axi_pkt On Analysis Imp Port#########################################################################################################
# UVM_INFO ..\DV\TB\AXI_SDRAM_Scoreboard.sv(50) @ 51.0 ns: uvm_test_top.env.axi_sd_scb [AXI_SDRAM_Scoreboard]  Printing inside scoreboard axi_pkt, 
#  -----------------------------------------------
# Name               Type        Size  Value     
# -----------------------------------------------
# uvm_sequence_item  AXI_Packet  -     @705      
#   ARESETn          integral    1     'h0       
#   ARADDR           integral    32    'h0       
#   ARVALID          integral    1     'h0       
#   ARREADY          integral    1     'h0       
#   AWADDR           integral    32    'h1150ac  
#   AWVALID          integral    1     'h1       
#   AWREADY          integral    1     'h0       
#   RDATA            integral    32    'h0       
#   RRESP            integral    2     'h0       
#   RVALID           integral    1     'h0       
#   RREADY           integral    1     'h0       
#   WDATA            integral    32    'haa005514
#   WSTRB            integral    4     'h0       
#   WVALID           integral    1     'h1       
#   WREADY           integral    1     'h0       
#   BRESP            integral    2     'h0       
#   BVALID           integral    1     'h0       
#   BREADY           integral    1     'h1       
# -----------------------------------------------
# 
# ** Error: ../Design/sdram_sim_model/mt48lc16m16a2.v(1114): $period( posedge Clk:45 ns, :51 ns, 7 ns );
#    Time: 51 ns  Iteration: 2  Instance: /tb_top/SIM_Model
# ** Error: ../Design/sdram_sim_model/mt48lc16m16a2.v(1113): $period( negedge Clk:48 ns, :54 ns, 7 ns );
#    Time: 54 ns  Iteration: 1  Instance: /tb_top/SIM_Model
# ** Error: ../Design/sdram_sim_model/mt48lc16m16a2.v(1114): $period( posedge Clk:51 ns, :57 ns, 7 ns );
#    Time: 57 ns  Iteration: 2  Instance: /tb_top/SIM_Model
# UVM_INFO ..\DV\TB\..\AXI\AXI_Monitor.sv(86) @ 59.0 ns: uvm_test_top.env.axi_agt.axi_mon [uvm_test_top.env.axi_agt.axi_mon] -------------------------Write_Packet_sampled-------------------------------
# ** Error: ../Design/sdram_sim_model/mt48lc16m16a2.v(1113): $period( negedge Clk:54 ns, :60 ns, 7 ns );
#    Time: 60 ns  Iteration: 1  Instance: /tb_top/SIM_Model
# ** Error: ../Design/sdram_sim_model/mt48lc16m16a2.v(1114): $period( posedge Clk:57 ns, :63 ns, 7 ns );
#    Time: 63 ns  Iteration: 2  Instance: /tb_top/SIM_Model
# UVM_INFO ..\DV\TB\..\AXI\AXI_Sequence.sv(210) @ 63.0 ns: reporter@@AXI_Burst_Read_after_Write_Sequence [uvm_test_top.env.axi_agt.axi_seq.axi_seq] ################################-AXI Generated Packet-############################
# UVM_INFO ..\DV\TB\..\AXI\AXI_Driver.sv(27) @ 63.0 ns: uvm_test_top.env.axi_agt.axi_drv [uvm_test_top.env.axi_agt.axi_drv] -------------------------AXI_Driver_packet#####-------------------------------
# -----------------------------------------------------------------------------------------
# Name                           Type        Size  Value                                   
# -----------------------------------------------------------------------------------------
# trans                          AXI_Packet  -     @776                                    
#   ARESETn                      integral    1     'h0                                     
#   ARADDR                       integral    32    'h0                                     
#   ARVALID                      integral    1     'h0                                     
#   ARREADY                      integral    1     'h0                                     
#   AWADDR                       integral    32    'h1150b0                                
#   AWVALID                      integral    1     'h1                                     
#   AWREADY                      integral    1     'h0                                     
#   RDATA                        integral    32    'h0                                     
#   RRESP                        integral    2     'h0                                     
#   RVALID                       integral    1     'h0                                     
#   RREADY                       integral    1     'h0                                     
#   WDATA                        integral    32    'haa00551a                              
#   WSTRB                        integral    4     'hf                                     
#   WVALID                       integral    1     'h1                                     
#   WREADY                       integral    1     'h0                                     
#   BRESP                        integral    2     'h0                                     
#   BVALID                       integral    1     'h0                                     
#   BREADY                       integral    1     'h0                                     
#   begin_time                   time        64    63.0 ns                                 
#   depth                        int         32    'd2                                     
#   parent sequence (name)       string      7     axi_seq                                 
#   parent sequence (full name)  string      40    uvm_test_top.env.axi_agt.axi_seq.axi_seq
#   sequencer                    string      32    uvm_test_top.env.axi_agt.axi_seq        
# -----------------------------------------------------------------------------------------
# ** Error: ../Design/sdram_sim_model/mt48lc16m16a2.v(1113): $period( negedge Clk:60 ns, :66 ns, 7 ns );
#    Time: 66 ns  Iteration: 1  Instance: /tb_top/SIM_Model
# UVM_INFO ..\DV\TB\..\AXI\AXI_Monitor.sv(118) @ 67.0 ns: uvm_test_top.env.axi_agt.axi_mon [uvm_test_top.env.axi_agt.axi_mon] -------------------------Read_Packet_sampled-------------------------------
# UVM_INFO ..\DV\TB\..\AXI\AXI_Monitor.sv(45) @ 67.0 ns: uvm_test_top.env.axi_agt.axi_mon [uvm_test_top.env.axi_agt.axi_mon] -------------------------AXI_Monitor_data-------------------------------
# -----------------------------------------------
# Name               Type        Size  Value     
# -----------------------------------------------
# uvm_sequence_item  AXI_Packet  -     @705      
#   ARESETn          integral    1     'h0       
#   ARADDR           integral    32    'h0       
#   ARVALID          integral    1     'h0       
#   ARREADY          integral    1     'h0       
#   AWADDR           integral    32    'h1150ae  
#   AWVALID          integral    1     'h1       
#   AWREADY          integral    1     'h0       
#   RDATA            integral    32    'h0       
#   RRESP            integral    2     'h0       
#   RVALID           integral    1     'h0       
#   RREADY           integral    1     'h0       
#   WDATA            integral    32    'haa005517
#   WSTRB            integral    4     'h0       
#   WVALID           integral    1     'h1       
#   WREADY           integral    1     'h0       
#   BRESP            integral    2     'h0       
#   BVALID           integral    1     'h0       
#   BREADY           integral    1     'h1       
# -----------------------------------------------
# UVM_INFO ..\DV\TB\AXI_SDRAM_Scoreboard.sv(49) @ 67.0 ns: uvm_test_top.env.axi_sd_scb [AXI_SDRAM_Scoreboard]  Inside write_port_a method. Received axi_pkt On Analysis Imp Port#########################################################################################################
# UVM_INFO ..\DV\TB\AXI_SDRAM_Scoreboard.sv(50) @ 67.0 ns: uvm_test_top.env.axi_sd_scb [AXI_SDRAM_Scoreboard]  Printing inside scoreboard axi_pkt, 
#  -----------------------------------------------
# Name               Type        Size  Value     
# -----------------------------------------------
# uvm_sequence_item  AXI_Packet  -     @705      
#   ARESETn          integral    1     'h0       
#   ARADDR           integral    32    'h0       
#   ARVALID          integral    1     'h0       
#   ARREADY          integral    1     'h0       
#   AWADDR           integral    32    'h1150ae  
#   AWVALID          integral    1     'h1       
#   AWREADY          integral    1     'h0       
#   RDATA            integral    32    'h0       
#   RRESP            integral    2     'h0       
#   RVALID           integral    1     'h0       
#   RREADY           integral    1     'h0       
#   WDATA            integral    32    'haa005517
#   WSTRB            integral    4     'h0       
#   WVALID           integral    1     'h1       
#   WREADY           integral    1     'h0       
#   BRESP            integral    2     'h0       
#   BVALID           integral    1     'h0       
#   BREADY           integral    1     'h1       
# -----------------------------------------------
# 
# ** Error: ../Design/sdram_sim_model/mt48lc16m16a2.v(1114): $period( posedge Clk:63 ns, :69 ns, 7 ns );
#    Time: 69 ns  Iteration: 2  Instance: /tb_top/SIM_Model
# ** Error: ../Design/sdram_sim_model/mt48lc16m16a2.v(1113): $period( negedge Clk:66 ns, :72 ns, 7 ns );
#    Time: 72 ns  Iteration: 1  Instance: /tb_top/SIM_Model
# UVM_INFO ..\DV\TB\..\AXI\AXI_Monitor.sv(86) @ 75.0 ns: uvm_test_top.env.axi_agt.axi_mon [uvm_test_top.env.axi_agt.axi_mon] -------------------------Write_Packet_sampled-------------------------------
# ** Error: ../Design/sdram_sim_model/mt48lc16m16a2.v(1114): $period( posedge Clk:69 ns, :75 ns, 7 ns );
#    Time: 75 ns  Iteration: 2  Instance: /tb_top/SIM_Model
# ** Error: ../Design/sdram_sim_model/mt48lc16m16a2.v(1113): $period( negedge Clk:72 ns, :78 ns, 7 ns );
#    Time: 78 ns  Iteration: 1  Instance: /tb_top/SIM_Model
# UVM_INFO ..\DV\TB\..\AXI\AXI_Sequence.sv(210) @ 79.0 ns: reporter@@AXI_Burst_Read_after_Write_Sequence [uvm_test_top.env.axi_agt.axi_seq.axi_seq] ################################-AXI Generated Packet-############################
# UVM_INFO ..\DV\TB\..\AXI\AXI_Driver.sv(27) @ 79.0 ns: uvm_test_top.env.axi_agt.axi_drv [uvm_test_top.env.axi_agt.axi_drv] -------------------------AXI_Driver_packet#####-------------------------------
# -----------------------------------------------------------------------------------------
# Name                           Type        Size  Value                                   
# -----------------------------------------------------------------------------------------
# trans                          AXI_Packet  -     @780                                    
#   ARESETn                      integral    1     'h0                                     
#   ARADDR                       integral    32    'h0                                     
#   ARVALID                      integral    1     'h0                                     
#   ARREADY                      integral    1     'h0                                     
#   AWADDR                       integral    32    'h1150b2                                
#   AWVALID                      integral    1     'h1                                     
#   AWREADY                      integral    1     'h0                                     
#   RDATA                        integral    32    'h0                                     
#   RRESP                        integral    2     'h0                                     
#   RVALID                       integral    1     'h0                                     
#   RREADY                       integral    1     'h0                                     
#   WDATA                        integral    32    'haa00551d                              
#   WSTRB                        integral    4     'hf                                     
#   WVALID                       integral    1     'h1                                     
#   WREADY                       integral    1     'h0                                     
#   BRESP                        integral    2     'h0                                     
#   BVALID                       integral    1     'h0                                     
#   BREADY                       integral    1     'h0                                     
#   begin_time                   time        64    79.0 ns                                 
#   depth                        int         32    'd2                                     
#   parent sequence (name)       string      7     axi_seq                                 
#   parent sequence (full name)  string      40    uvm_test_top.env.axi_agt.axi_seq.axi_seq
#   sequencer                    string      32    uvm_test_top.env.axi_agt.axi_seq        
# -----------------------------------------------------------------------------------------
# ** Error: ../Design/sdram_sim_model/mt48lc16m16a2.v(1114): $period( posedge Clk:75 ns, :81 ns, 7 ns );
#    Time: 81 ns  Iteration: 2  Instance: /tb_top/SIM_Model
# UVM_INFO ..\DV\TB\..\AXI\AXI_Monitor.sv(118) @ 83.0 ns: uvm_test_top.env.axi_agt.axi_mon [uvm_test_top.env.axi_agt.axi_mon] -------------------------Read_Packet_sampled-------------------------------
# UVM_INFO ..\DV\TB\..\AXI\AXI_Monitor.sv(45) @ 83.0 ns: uvm_test_top.env.axi_agt.axi_mon [uvm_test_top.env.axi_agt.axi_mon] -------------------------AXI_Monitor_data-------------------------------
# -----------------------------------------------
# Name               Type        Size  Value     
# -----------------------------------------------
# uvm_sequence_item  AXI_Packet  -     @705      
#   ARESETn          integral    1     'h0       
#   ARADDR           integral    32    'h0       
#   ARVALID          integral    1     'h0       
#   ARREADY          integral    1     'h0       
#   AWADDR           integral    32    'h1150b0  
#   AWVALID          integral    1     'h1       
#   AWREADY          integral    1     'h0       
#   RDATA            integral    32    'h0       
#   RRESP            integral    2     'h0       
#   RVALID           integral    1     'h0       
#   RREADY           integral    1     'h0       
#   WDATA            integral    32    'haa00551a
#   WSTRB            integral    4     'h0       
#   WVALID           integral    1     'h1       
#   WREADY           integral    1     'h0       
#   BRESP            integral    2     'h0       
#   BVALID           integral    1     'h0       
#   BREADY           integral    1     'h1       
# -----------------------------------------------
# UVM_INFO ..\DV\TB\AXI_SDRAM_Scoreboard.sv(49) @ 83.0 ns: uvm_test_top.env.axi_sd_scb [AXI_SDRAM_Scoreboard]  Inside write_port_a method. Received axi_pkt On Analysis Imp Port#########################################################################################################
# UVM_INFO ..\DV\TB\AXI_SDRAM_Scoreboard.sv(50) @ 83.0 ns: uvm_test_top.env.axi_sd_scb [AXI_SDRAM_Scoreboard]  Printing inside scoreboard axi_pkt, 
#  -----------------------------------------------
# Name               Type        Size  Value     
# -----------------------------------------------
# uvm_sequence_item  AXI_Packet  -     @705      
#   ARESETn          integral    1     'h0       
#   ARADDR           integral    32    'h0       
#   ARVALID          integral    1     'h0       
#   ARREADY          integral    1     'h0       
#   AWADDR           integral    32    'h1150b0  
#   AWVALID          integral    1     'h1       
#   AWREADY          integral    1     'h0       
#   RDATA            integral    32    'h0       
#   RRESP            integral    2     'h0       
#   RVALID           integral    1     'h0       
#   RREADY           integral    1     'h0       
#   WDATA            integral    32    'haa00551a
#   WSTRB            integral    4     'h0       
#   WVALID           integral    1     'h1       
#   WREADY           integral    1     'h0       
#   BRESP            integral    2     'h0       
#   BVALID           integral    1     'h0       
#   BREADY           integral    1     'h1       
# -----------------------------------------------
# 
# ** Error: ../Design/sdram_sim_model/mt48lc16m16a2.v(1113): $period( negedge Clk:78 ns, :84 ns, 7 ns );
#    Time: 84 ns  Iteration: 1  Instance: /tb_top/SIM_Model
# ** Error: ../Design/sdram_sim_model/mt48lc16m16a2.v(1114): $period( posedge Clk:81 ns, :87 ns, 7 ns );
#    Time: 87 ns  Iteration: 2  Instance: /tb_top/SIM_Model
# ** Error: ../Design/sdram_sim_model/mt48lc16m16a2.v(1113): $period( negedge Clk:84 ns, :90 ns, 7 ns );
#    Time: 90 ns  Iteration: 1  Instance: /tb_top/SIM_Model
# UVM_INFO ..\DV\TB\..\AXI\AXI_Monitor.sv(86) @ 91.0 ns: uvm_test_top.env.axi_agt.axi_mon [uvm_test_top.env.axi_agt.axi_mon] -------------------------Write_Packet_sampled-------------------------------
# ** Error: ../Design/sdram_sim_model/mt48lc16m16a2.v(1114): $period( posedge Clk:87 ns, :93 ns, 7 ns );
#    Time: 93 ns  Iteration: 2  Instance: /tb_top/SIM_Model
# UVM_INFO ..\DV\TB\..\AXI\AXI_Sequence.sv(210) @ 95.0 ns: reporter@@AXI_Burst_Read_after_Write_Sequence [uvm_test_top.env.axi_agt.axi_seq.axi_seq] ################################-AXI Generated Packet-############################
# UVM_INFO ..\DV\TB\..\AXI\AXI_Driver.sv(27) @ 95.0 ns: uvm_test_top.env.axi_agt.axi_drv [uvm_test_top.env.axi_agt.axi_drv] -------------------------AXI_Driver_packet#####-------------------------------
# -----------------------------------------------------------------------------------------
# Name                           Type        Size  Value                                   
# -----------------------------------------------------------------------------------------
# trans                          AXI_Packet  -     @784                                    
#   ARESETn                      integral    1     'h0                                     
#   ARADDR                       integral    32    'h0                                     
#   ARVALID                      integral    1     'h0                                     
#   ARREADY                      integral    1     'h0                                     
#   AWADDR                       integral    32    'h1150b4                                
#   AWVALID                      integral    1     'h1                                     
#   AWREADY                      integral    1     'h0                                     
#   RDATA                        integral    32    'h0                                     
#   RRESP                        integral    2     'h0                                     
#   RVALID                       integral    1     'h0                                     
#   RREADY                       integral    1     'h0                                     
#   WDATA                        integral    32    'haa005520                              
#   WSTRB                        integral    4     'hf                                     
#   WVALID                       integral    1     'h1                                     
#   WREADY                       integral    1     'h0                                     
#   BRESP                        integral    2     'h0                                     
#   BVALID                       integral    1     'h0                                     
#   BREADY                       integral    1     'h0                                     
#   begin_time                   time        64    95.0 ns                                 
#   depth                        int         32    'd2                                     
#   parent sequence (name)       string      7     axi_seq                                 
#   parent sequence (full name)  string      40    uvm_test_top.env.axi_agt.axi_seq.axi_seq
#   sequencer                    string      32    uvm_test_top.env.axi_agt.axi_seq        
# -----------------------------------------------------------------------------------------
# ** Error: ../Design/sdram_sim_model/mt48lc16m16a2.v(1113): $period( negedge Clk:90 ns, :96 ns, 7 ns );
#    Time: 96 ns  Iteration: 1  Instance: /tb_top/SIM_Model
# UVM_INFO ..\DV\TB\..\AXI\AXI_Monitor.sv(118) @ 99.0 ns: uvm_test_top.env.axi_agt.axi_mon [uvm_test_top.env.axi_agt.axi_mon] -------------------------Read_Packet_sampled-------------------------------
# UVM_INFO ..\DV\TB\..\AXI\AXI_Monitor.sv(45) @ 99.0 ns: uvm_test_top.env.axi_agt.axi_mon [uvm_test_top.env.axi_agt.axi_mon] -------------------------AXI_Monitor_data-------------------------------
# -----------------------------------------------
# Name               Type        Size  Value     
# -----------------------------------------------
# uvm_sequence_item  AXI_Packet  -     @705      
#   ARESETn          integral    1     'h0       
#   ARADDR           integral    32    'h0       
#   ARVALID          integral    1     'h0       
#   ARREADY          integral    1     'h0       
#   AWADDR           integral    32    'h1150b2  
#   AWVALID          integral    1     'h1       
#   AWREADY          integral    1     'h0       
#   RDATA            integral    32    'h0       
#   RRESP            integral    2     'h0       
#   RVALID           integral    1     'h0       
#   RREADY           integral    1     'h0       
#   WDATA            integral    32    'haa00551d
#   WSTRB            integral    4     'h0       
#   WVALID           integral    1     'h1       
#   WREADY           integral    1     'h0       
#   BRESP            integral    2     'h0       
#   BVALID           integral    1     'h0       
#   BREADY           integral    1     'h1       
# -----------------------------------------------
# UVM_INFO ..\DV\TB\AXI_SDRAM_Scoreboard.sv(49) @ 99.0 ns: uvm_test_top.env.axi_sd_scb [AXI_SDRAM_Scoreboard]  Inside write_port_a method. Received axi_pkt On Analysis Imp Port#########################################################################################################
# UVM_INFO ..\DV\TB\AXI_SDRAM_Scoreboard.sv(50) @ 99.0 ns: uvm_test_top.env.axi_sd_scb [AXI_SDRAM_Scoreboard]  Printing inside scoreboard axi_pkt, 
#  -----------------------------------------------
# Name               Type        Size  Value     
# -----------------------------------------------
# uvm_sequence_item  AXI_Packet  -     @705      
#   ARESETn          integral    1     'h0       
#   ARADDR           integral    32    'h0       
#   ARVALID          integral    1     'h0       
#   ARREADY          integral    1     'h0       
#   AWADDR           integral    32    'h1150b2  
#   AWVALID          integral    1     'h1       
#   AWREADY          integral    1     'h0       
#   RDATA            integral    32    'h0       
#   RRESP            integral    2     'h0       
#   RVALID           integral    1     'h0       
#   RREADY           integral    1     'h0       
#   WDATA            integral    32    'haa00551d
#   WSTRB            integral    4     'h0       
#   WVALID           integral    1     'h1       
#   WREADY           integral    1     'h0       
#   BRESP            integral    2     'h0       
#   BVALID           integral    1     'h0       
#   BREADY           integral    1     'h1       
# -----------------------------------------------
# 
# ** Error: ../Design/sdram_sim_model/mt48lc16m16a2.v(1114): $period( posedge Clk:93 ns, :99 ns, 7 ns );
#    Time: 99 ns  Iteration: 2  Instance: /tb_top/SIM_Model
# ** Error: ../Design/sdram_sim_model/mt48lc16m16a2.v(1113): $period( negedge Clk:96 ns, :102 ns, 7 ns );
#    Time: 102 ns  Iteration: 1  Instance: /tb_top/SIM_Model
# ** Error: ../Design/sdram_sim_model/mt48lc16m16a2.v(1114): $period( posedge Clk:99 ns, :105 ns, 7 ns );
#    Time: 105 ns  Iteration: 2  Instance: /tb_top/SIM_Model
# ** Error: ../Design/sdram_sim_model/mt48lc16m16a2.v(1120): $hold( posedge Clk:105 ns, Addr:105 ns, 800 ps );
#    Time: 105 ns  Iteration: 3  Instance: /tb_top/SIM_Model
# ** Error: ../Design/sdram_sim_model/mt48lc16m16a2.v(1118): $hold( posedge Clk:105 ns, Ras_n:105 ns, 800 ps );
#    Time: 105 ns  Iteration: 3  Instance: /tb_top/SIM_Model
# ** Error: ../Design/sdram_sim_model/mt48lc16m16a2.v(1119): $hold( posedge Clk:105 ns, We_n:105 ns, 800 ps );
#    Time: 105 ns  Iteration: 3  Instance: /tb_top/SIM_Model
# UVM_INFO ..\DV\TB\..\AXI\AXI_Monitor.sv(86) @ 107.0 ns: uvm_test_top.env.axi_agt.axi_mon [uvm_test_top.env.axi_agt.axi_mon] -------------------------Write_Packet_sampled-------------------------------
# ** Error: ../Design/sdram_sim_model/mt48lc16m16a2.v(1113): $period( negedge Clk:102 ns, :108 ns, 7 ns );
#    Time: 108 ns  Iteration: 1  Instance: /tb_top/SIM_Model
# ** Error: ../Design/sdram_sim_model/mt48lc16m16a2.v(1114): $period( posedge Clk:105 ns, :111 ns, 7 ns );
#    Time: 111 ns  Iteration: 2  Instance: /tb_top/SIM_Model
# UVM_INFO ..\DV\TB\..\AXI\AXI_Sequence.sv(210) @ 111.0 ns: reporter@@AXI_Burst_Read_after_Write_Sequence [uvm_test_top.env.axi_agt.axi_seq.axi_seq] ################################-AXI Generated Packet-############################
# UVM_INFO ..\DV\TB\..\AXI\AXI_Driver.sv(27) @ 111.0 ns: uvm_test_top.env.axi_agt.axi_drv [uvm_test_top.env.axi_agt.axi_drv] -------------------------AXI_Driver_packet#####-------------------------------
# -----------------------------------------------------------------------------------------
# Name                           Type        Size  Value                                   
# -----------------------------------------------------------------------------------------
# trans                          AXI_Packet  -     @788                                    
#   ARESETn                      integral    1     'h0                                     
#   ARADDR                       integral    32    'h0                                     
#   ARVALID                      integral    1     'h0                                     
#   ARREADY                      integral    1     'h0                                     
#   AWADDR                       integral    32    'h1150b6                                
#   AWVALID                      integral    1     'h1                                     
#   AWREADY                      integral    1     'h0                                     
#   RDATA                        integral    32    'h0                                     
#   RRESP                        integral    2     'h0                                     
#   RVALID                       integral    1     'h0                                     
#   RREADY                       integral    1     'h0                                     
#   WDATA                        integral    32    'haa005523                              
#   WSTRB                        integral    4     'hf                                     
#   WVALID                       integral    1     'h1                                     
#   WREADY                       integral    1     'h0                                     
#   BRESP                        integral    2     'h0                                     
#   BVALID                       integral    1     'h0                                     
#   BREADY                       integral    1     'h0                                     
#   begin_time                   time        64    111.0 ns                                
#   depth                        int         32    'd2                                     
#   parent sequence (name)       string      7     axi_seq                                 
#   parent sequence (full name)  string      40    uvm_test_top.env.axi_agt.axi_seq.axi_seq
#   sequencer                    string      32    uvm_test_top.env.axi_agt.axi_seq        
# -----------------------------------------------------------------------------------------
# ** Error: ../Design/sdram_sim_model/mt48lc16m16a2.v(1120): $hold( posedge Clk:111 ns, Addr:111 ns, 800 ps );
#    Time: 111 ns  Iteration: 5  Instance: /tb_top/SIM_Model
# ** Error: ../Design/sdram_sim_model/mt48lc16m16a2.v(1118): $hold( posedge Clk:111 ns, Ras_n:111 ns, 800 ps );
#    Time: 111 ns  Iteration: 5  Instance: /tb_top/SIM_Model
# ** Error: ../Design/sdram_sim_model/mt48lc16m16a2.v(1119): $hold( posedge Clk:111 ns, We_n:111 ns, 800 ps );
#    Time: 111 ns  Iteration: 5  Instance: /tb_top/SIM_Model
# ** Error: ../Design/sdram_sim_model/mt48lc16m16a2.v(1113): $period( negedge Clk:108 ns, :114 ns, 7 ns );
#    Time: 114 ns  Iteration: 1  Instance: /tb_top/SIM_Model
# UVM_INFO ..\DV\TB\..\AXI\AXI_Monitor.sv(118) @ 115.0 ns: uvm_test_top.env.axi_agt.axi_mon [uvm_test_top.env.axi_agt.axi_mon] -------------------------Read_Packet_sampled-------------------------------
# UVM_INFO ..\DV\TB\..\AXI\AXI_Monitor.sv(45) @ 115.0 ns: uvm_test_top.env.axi_agt.axi_mon [uvm_test_top.env.axi_agt.axi_mon] -------------------------AXI_Monitor_data-------------------------------
# -----------------------------------------------
# Name               Type        Size  Value     
# -----------------------------------------------
# uvm_sequence_item  AXI_Packet  -     @705      
#   ARESETn          integral    1     'h0       
#   ARADDR           integral    32    'h0       
#   ARVALID          integral    1     'h0       
#   ARREADY          integral    1     'h0       
#   AWADDR           integral    32    'h1150b4  
#   AWVALID          integral    1     'h1       
#   AWREADY          integral    1     'h0       
#   RDATA            integral    32    'h0       
#   RRESP            integral    2     'h0       
#   RVALID           integral    1     'h0       
#   RREADY           integral    1     'h0       
#   WDATA            integral    32    'haa005520
#   WSTRB            integral    4     'h0       
#   WVALID           integral    1     'h1       
#   WREADY           integral    1     'h0       
#   BRESP            integral    2     'h0       
#   BVALID           integral    1     'h0       
#   BREADY           integral    1     'h1       
# -----------------------------------------------
# UVM_INFO ..\DV\TB\AXI_SDRAM_Scoreboard.sv(49) @ 115.0 ns: uvm_test_top.env.axi_sd_scb [AXI_SDRAM_Scoreboard]  Inside write_port_a method. Received axi_pkt On Analysis Imp Port#########################################################################################################
# UVM_INFO ..\DV\TB\AXI_SDRAM_Scoreboard.sv(50) @ 115.0 ns: uvm_test_top.env.axi_sd_scb [AXI_SDRAM_Scoreboard]  Printing inside scoreboard axi_pkt, 
#  -----------------------------------------------
# Name               Type        Size  Value     
# -----------------------------------------------
# uvm_sequence_item  AXI_Packet  -     @705      
#   ARESETn          integral    1     'h0       
#   ARADDR           integral    32    'h0       
#   ARVALID          integral    1     'h0       
#   ARREADY          integral    1     'h0       
#   AWADDR           integral    32    'h1150b4  
#   AWVALID          integral    1     'h1       
#   AWREADY          integral    1     'h0       
#   RDATA            integral    32    'h0       
#   RRESP            integral    2     'h0       
#   RVALID           integral    1     'h0       
#   RREADY           integral    1     'h0       
#   WDATA            integral    32    'haa005520
#   WSTRB            integral    4     'h0       
#   WVALID           integral    1     'h1       
#   WREADY           integral    1     'h0       
#   BRESP            integral    2     'h0       
#   BVALID           integral    1     'h0       
#   BREADY           integral    1     'h1       
# -----------------------------------------------
# 
# ** Error: ../Design/sdram_sim_model/mt48lc16m16a2.v(1114): $period( posedge Clk:111 ns, :117 ns, 7 ns );
#    Time: 117 ns  Iteration: 2  Instance: /tb_top/SIM_Model
# ** Error: ../Design/sdram_sim_model/mt48lc16m16a2.v(1118): $hold( posedge Clk:117 ns, Ras_n:117 ns, 800 ps );
#    Time: 117 ns  Iteration: 3  Instance: /tb_top/SIM_Model
# ** Error: ../Design/sdram_sim_model/mt48lc16m16a2.v(1117): $hold( posedge Clk:117 ns, Cas_n:117 ns, 800 ps );
#    Time: 117 ns  Iteration: 3  Instance: /tb_top/SIM_Model
# ** Error: ../Design/sdram_sim_model/mt48lc16m16a2.v(1113): $period( negedge Clk:114 ns, :120 ns, 7 ns );
#    Time: 120 ns  Iteration: 1  Instance: /tb_top/SIM_Model
# UVM_INFO ..\DV\TB\..\AXI\AXI_Monitor.sv(86) @ 123.0 ns: uvm_test_top.env.axi_agt.axi_mon [uvm_test_top.env.axi_agt.axi_mon] -------------------------Write_Packet_sampled-------------------------------
# tb_top.SIM_Model : at time     123.0 ns ERROR: tRP violation during Auto Refresh
# ** Error: ../Design/sdram_sim_model/mt48lc16m16a2.v(1114): $period( posedge Clk:117 ns, :123 ns, 7 ns );
#    Time: 123 ns  Iteration: 2  Instance: /tb_top/SIM_Model
# ** Error: ../Design/sdram_sim_model/mt48lc16m16a2.v(1118): $hold( posedge Clk:123 ns, Ras_n:123 ns, 800 ps );
#    Time: 123 ns  Iteration: 3  Instance: /tb_top/SIM_Model
# ** Error: ../Design/sdram_sim_model/mt48lc16m16a2.v(1117): $hold( posedge Clk:123 ns, Cas_n:123 ns, 800 ps );
#    Time: 123 ns  Iteration: 3  Instance: /tb_top/SIM_Model
# ** Error: ../Design/sdram_sim_model/mt48lc16m16a2.v(1113): $period( negedge Clk:120 ns, :126 ns, 7 ns );
#    Time: 126 ns  Iteration: 1  Instance: /tb_top/SIM_Model
# UVM_INFO ..\DV\TB\..\AXI\AXI_Sequence.sv(210) @ 127.0 ns: reporter@@AXI_Burst_Read_after_Write_Sequence [uvm_test_top.env.axi_agt.axi_seq.axi_seq] ################################-AXI Generated Packet-############################
# UVM_INFO ..\DV\TB\..\AXI\AXI_Driver.sv(27) @ 127.0 ns: uvm_test_top.env.axi_agt.axi_drv [uvm_test_top.env.axi_agt.axi_drv] -------------------------AXI_Driver_packet#####-------------------------------
# -----------------------------------------------------------------------------------------
# Name                           Type        Size  Value                                   
# -----------------------------------------------------------------------------------------
# trans                          AXI_Packet  -     @792                                    
#   ARESETn                      integral    1     'h0                                     
#   ARADDR                       integral    32    'h0                                     
#   ARVALID                      integral    1     'h0                                     
#   ARREADY                      integral    1     'h0                                     
#   AWADDR                       integral    32    'h1150b8                                
#   AWVALID                      integral    1     'h1                                     
#   AWREADY                      integral    1     'h0                                     
#   RDATA                        integral    32    'h0                                     
#   RRESP                        integral    2     'h0                                     
#   RVALID                       integral    1     'h0                                     
#   RREADY                       integral    1     'h0                                     
#   WDATA                        integral    32    'haa005526                              
#   WSTRB                        integral    4     'hf                                     
#   WVALID                       integral    1     'h1                                     
#   WREADY                       integral    1     'h0                                     
#   BRESP                        integral    2     'h0                                     
#   BVALID                       integral    1     'h0                                     
#   BREADY                       integral    1     'h0                                     
#   begin_time                   time        64    127.0 ns                                
#   depth                        int         32    'd2                                     
#   parent sequence (name)       string      7     axi_seq                                 
#   parent sequence (full name)  string      40    uvm_test_top.env.axi_agt.axi_seq.axi_seq
#   sequencer                    string      32    uvm_test_top.env.axi_agt.axi_seq        
# -----------------------------------------------------------------------------------------
# ** Error: ../Design/sdram_sim_model/mt48lc16m16a2.v(1114): $period( posedge Clk:123 ns, :129 ns, 7 ns );
#    Time: 129 ns  Iteration: 2  Instance: /tb_top/SIM_Model
# UVM_INFO ..\DV\TB\..\AXI\AXI_Monitor.sv(118) @ 131.0 ns: uvm_test_top.env.axi_agt.axi_mon [uvm_test_top.env.axi_agt.axi_mon] -------------------------Read_Packet_sampled-------------------------------
# UVM_INFO ..\DV\TB\..\AXI\AXI_Monitor.sv(45) @ 131.0 ns: uvm_test_top.env.axi_agt.axi_mon [uvm_test_top.env.axi_agt.axi_mon] -------------------------AXI_Monitor_data-------------------------------
# -----------------------------------------------
# Name               Type        Size  Value     
# -----------------------------------------------
# uvm_sequence_item  AXI_Packet  -     @705      
#   ARESETn          integral    1     'h0       
#   ARADDR           integral    32    'h0       
#   ARVALID          integral    1     'h0       
#   ARREADY          integral    1     'h0       
#   AWADDR           integral    32    'h1150b6  
#   AWVALID          integral    1     'h1       
#   AWREADY          integral    1     'h0       
#   RDATA            integral    32    'h0       
#   RRESP            integral    2     'h0       
#   RVALID           integral    1     'h0       
#   RREADY           integral    1     'h0       
#   WDATA            integral    32    'haa005523
#   WSTRB            integral    4     'h0       
#   WVALID           integral    1     'h1       
#   WREADY           integral    1     'h0       
#   BRESP            integral    2     'h0       
#   BVALID           integral    1     'h0       
#   BREADY           integral    1     'h1       
# -----------------------------------------------
# UVM_INFO ..\DV\TB\AXI_SDRAM_Scoreboard.sv(49) @ 131.0 ns: uvm_test_top.env.axi_sd_scb [AXI_SDRAM_Scoreboard]  Inside write_port_a method. Received axi_pkt On Analysis Imp Port#########################################################################################################
# UVM_INFO ..\DV\TB\AXI_SDRAM_Scoreboard.sv(50) @ 131.0 ns: uvm_test_top.env.axi_sd_scb [AXI_SDRAM_Scoreboard]  Printing inside scoreboard axi_pkt, 
#  -----------------------------------------------
# Name               Type        Size  Value     
# -----------------------------------------------
# uvm_sequence_item  AXI_Packet  -     @705      
#   ARESETn          integral    1     'h0       
#   ARADDR           integral    32    'h0       
#   ARVALID          integral    1     'h0       
#   ARREADY          integral    1     'h0       
#   AWADDR           integral    32    'h1150b6  
#   AWVALID          integral    1     'h1       
#   AWREADY          integral    1     'h0       
#   RDATA            integral    32    'h0       
#   RRESP            integral    2     'h0       
#   RVALID           integral    1     'h0       
#   RREADY           integral    1     'h0       
#   WDATA            integral    32    'haa005523
#   WSTRB            integral    4     'h0       
#   WVALID           integral    1     'h1       
#   WREADY           integral    1     'h0       
#   BRESP            integral    2     'h0       
#   BVALID           integral    1     'h0       
#   BREADY           integral    1     'h1       
# -----------------------------------------------
# 
# ** Error: ../Design/sdram_sim_model/mt48lc16m16a2.v(1113): $period( negedge Clk:126 ns, :132 ns, 7 ns );
#    Time: 132 ns  Iteration: 1  Instance: /tb_top/SIM_Model
# ** Error: ../Design/sdram_sim_model/mt48lc16m16a2.v(1114): $period( posedge Clk:129 ns, :135 ns, 7 ns );
#    Time: 135 ns  Iteration: 2  Instance: /tb_top/SIM_Model
# ** Error: ../Design/sdram_sim_model/mt48lc16m16a2.v(1113): $period( negedge Clk:132 ns, :138 ns, 7 ns );
#    Time: 138 ns  Iteration: 1  Instance: /tb_top/SIM_Model
# UVM_INFO ..\DV\TB\..\AXI\AXI_Monitor.sv(86) @ 139.0 ns: uvm_test_top.env.axi_agt.axi_mon [uvm_test_top.env.axi_agt.axi_mon] -------------------------Write_Packet_sampled-------------------------------
# ** Error: ../Design/sdram_sim_model/mt48lc16m16a2.v(1114): $period( posedge Clk:135 ns, :141 ns, 7 ns );
#    Time: 141 ns  Iteration: 2  Instance: /tb_top/SIM_Model
# UVM_INFO ..\DV\TB\..\AXI\AXI_Sequence.sv(210) @ 143.0 ns: reporter@@AXI_Burst_Read_after_Write_Sequence [uvm_test_top.env.axi_agt.axi_seq.axi_seq] ################################-AXI Generated Packet-############################
# UVM_INFO ..\DV\TB\..\AXI\AXI_Driver.sv(27) @ 143.0 ns: uvm_test_top.env.axi_agt.axi_drv [uvm_test_top.env.axi_agt.axi_drv] -------------------------AXI_Driver_packet#####-------------------------------
# -----------------------------------------------------------------------------------------
# Name                           Type        Size  Value                                   
# -----------------------------------------------------------------------------------------
# trans                          AXI_Packet  -     @796                                    
#   ARESETn                      integral    1     'h0                                     
#   ARADDR                       integral    32    'h0                                     
#   ARVALID                      integral    1     'h0                                     
#   ARREADY                      integral    1     'h0                                     
#   AWADDR                       integral    32    'h1150ba                                
#   AWVALID                      integral    1     'h1                                     
#   AWREADY                      integral    1     'h0                                     
#   RDATA                        integral    32    'h0                                     
#   RRESP                        integral    2     'h0                                     
#   RVALID                       integral    1     'h0                                     
#   RREADY                       integral    1     'h0                                     
#   WDATA                        integral    32    'haa005529                              
#   WSTRB                        integral    4     'hf                                     
#   WVALID                       integral    1     'h1                                     
#   WREADY                       integral    1     'h0                                     
#   BRESP                        integral    2     'h0                                     
#   BVALID                       integral    1     'h0                                     
#   BREADY                       integral    1     'h0                                     
#   begin_time                   time        64    143.0 ns                                
#   depth                        int         32    'd2                                     
#   parent sequence (name)       string      7     axi_seq                                 
#   parent sequence (full name)  string      40    uvm_test_top.env.axi_agt.axi_seq.axi_seq
#   sequencer                    string      32    uvm_test_top.env.axi_agt.axi_seq        
# -----------------------------------------------------------------------------------------
# ** Error: ../Design/sdram_sim_model/mt48lc16m16a2.v(1113): $period( negedge Clk:138 ns, :144 ns, 7 ns );
#    Time: 144 ns  Iteration: 1  Instance: /tb_top/SIM_Model
# UVM_INFO ..\DV\TB\..\AXI\AXI_Monitor.sv(118) @ 147.0 ns: uvm_test_top.env.axi_agt.axi_mon [uvm_test_top.env.axi_agt.axi_mon] -------------------------Read_Packet_sampled-------------------------------
# UVM_INFO ..\DV\TB\..\AXI\AXI_Monitor.sv(45) @ 147.0 ns: uvm_test_top.env.axi_agt.axi_mon [uvm_test_top.env.axi_agt.axi_mon] -------------------------AXI_Monitor_data-------------------------------
# -----------------------------------------------
# Name               Type        Size  Value     
# -----------------------------------------------
# uvm_sequence_item  AXI_Packet  -     @705      
#   ARESETn          integral    1     'h0       
#   ARADDR           integral    32    'h0       
#   ARVALID          integral    1     'h0       
#   ARREADY          integral    1     'h0       
#   AWADDR           integral    32    'h1150b8  
#   AWVALID          integral    1     'h1       
#   AWREADY          integral    1     'h0       
#   RDATA            integral    32    'h0       
#   RRESP            integral    2     'h0       
#   RVALID           integral    1     'h0       
#   RREADY           integral    1     'h0       
#   WDATA            integral    32    'haa005526
#   WSTRB            integral    4     'h0       
#   WVALID           integral    1     'h1       
#   WREADY           integral    1     'h0       
#   BRESP            integral    2     'h0       
#   BVALID           integral    1     'h0       
#   BREADY           integral    1     'h1       
# -----------------------------------------------
# UVM_INFO ..\DV\TB\AXI_SDRAM_Scoreboard.sv(49) @ 147.0 ns: uvm_test_top.env.axi_sd_scb [AXI_SDRAM_Scoreboard]  Inside write_port_a method. Received axi_pkt On Analysis Imp Port#########################################################################################################
# UVM_INFO ..\DV\TB\AXI_SDRAM_Scoreboard.sv(50) @ 147.0 ns: uvm_test_top.env.axi_sd_scb [AXI_SDRAM_Scoreboard]  Printing inside scoreboard axi_pkt, 
#  -----------------------------------------------
# Name               Type        Size  Value     
# -----------------------------------------------
# uvm_sequence_item  AXI_Packet  -     @705      
#   ARESETn          integral    1     'h0       
#   ARADDR           integral    32    'h0       
#   ARVALID          integral    1     'h0       
#   ARREADY          integral    1     'h0       
#   AWADDR           integral    32    'h1150b8  
#   AWVALID          integral    1     'h1       
#   AWREADY          integral    1     'h0       
#   RDATA            integral    32    'h0       
#   RRESP            integral    2     'h0       
#   RVALID           integral    1     'h0       
#   RREADY           integral    1     'h0       
#   WDATA            integral    32    'haa005526
#   WSTRB            integral    4     'h0       
#   WVALID           integral    1     'h1       
#   WREADY           integral    1     'h0       
#   BRESP            integral    2     'h0       
#   BVALID           integral    1     'h0       
#   BREADY           integral    1     'h1       
# -----------------------------------------------
# 
# ** Error: ../Design/sdram_sim_model/mt48lc16m16a2.v(1114): $period( posedge Clk:141 ns, :147 ns, 7 ns );
#    Time: 147 ns  Iteration: 2  Instance: /tb_top/SIM_Model
# ** Error: ../Design/sdram_sim_model/mt48lc16m16a2.v(1113): $period( negedge Clk:144 ns, :150 ns, 7 ns );
#    Time: 150 ns  Iteration: 1  Instance: /tb_top/SIM_Model
# ** Error: ../Design/sdram_sim_model/mt48lc16m16a2.v(1114): $period( posedge Clk:147 ns, :153 ns, 7 ns );
#    Time: 153 ns  Iteration: 2  Instance: /tb_top/SIM_Model
# UVM_INFO ..\DV\TB\..\AXI\AXI_Monitor.sv(86) @ 155.0 ns: uvm_test_top.env.axi_agt.axi_mon [uvm_test_top.env.axi_agt.axi_mon] -------------------------Write_Packet_sampled-------------------------------
# ** Error: ../Design/sdram_sim_model/mt48lc16m16a2.v(1113): $period( negedge Clk:150 ns, :156 ns, 7 ns );
#    Time: 156 ns  Iteration: 1  Instance: /tb_top/SIM_Model
# ** Error: ../Design/sdram_sim_model/mt48lc16m16a2.v(1114): $period( posedge Clk:153 ns, :159 ns, 7 ns );
#    Time: 159 ns  Iteration: 2  Instance: /tb_top/SIM_Model
# UVM_INFO ..\DV\TB\..\AXI\AXI_Sequence.sv(210) @ 159.0 ns: reporter@@AXI_Burst_Read_after_Write_Sequence [uvm_test_top.env.axi_agt.axi_seq.axi_seq] ################################-AXI Generated Packet-############################
# UVM_INFO ..\DV\TB\..\AXI\AXI_Driver.sv(27) @ 159.0 ns: uvm_test_top.env.axi_agt.axi_drv [uvm_test_top.env.axi_agt.axi_drv] -------------------------AXI_Driver_packet#####-------------------------------
# -----------------------------------------------------------------------------------------
# Name                           Type        Size  Value                                   
# -----------------------------------------------------------------------------------------
# trans                          AXI_Packet  -     @800                                    
#   ARESETn                      integral    1     'h0                                     
#   ARADDR                       integral    32    'h0                                     
#   ARVALID                      integral    1     'h0                                     
#   ARREADY                      integral    1     'h0                                     
#   AWADDR                       integral    32    'h1150bc                                
#   AWVALID                      integral    1     'h1                                     
#   AWREADY                      integral    1     'h0                                     
#   RDATA                        integral    32    'h0                                     
#   RRESP                        integral    2     'h0                                     
#   RVALID                       integral    1     'h0                                     
#   RREADY                       integral    1     'h0                                     
#   WDATA                        integral    32    'haa00552c                              
#   WSTRB                        integral    4     'hf                                     
#   WVALID                       integral    1     'h1                                     
#   WREADY                       integral    1     'h0                                     
#   BRESP                        integral    2     'h0                                     
#   BVALID                       integral    1     'h0                                     
#   BREADY                       integral    1     'h0                                     
#   begin_time                   time        64    159.0 ns                                
#   depth                        int         32    'd2                                     
#   parent sequence (name)       string      7     axi_seq                                 
#   parent sequence (full name)  string      40    uvm_test_top.env.axi_agt.axi_seq.axi_seq
#   sequencer                    string      32    uvm_test_top.env.axi_agt.axi_seq        
# -----------------------------------------------------------------------------------------
# ** Error: ../Design/sdram_sim_model/mt48lc16m16a2.v(1113): $period( negedge Clk:156 ns, :162 ns, 7 ns );
#    Time: 162 ns  Iteration: 1  Instance: /tb_top/SIM_Model
# UVM_INFO ..\DV\TB\..\AXI\AXI_Monitor.sv(118) @ 163.0 ns: uvm_test_top.env.axi_agt.axi_mon [uvm_test_top.env.axi_agt.axi_mon] -------------------------Read_Packet_sampled-------------------------------
# UVM_INFO ..\DV\TB\..\AXI\AXI_Monitor.sv(45) @ 163.0 ns: uvm_test_top.env.axi_agt.axi_mon [uvm_test_top.env.axi_agt.axi_mon] -------------------------AXI_Monitor_data-------------------------------
# -----------------------------------------------
# Name               Type        Size  Value     
# -----------------------------------------------
# uvm_sequence_item  AXI_Packet  -     @705      
#   ARESETn          integral    1     'h0       
#   ARADDR           integral    32    'h0       
#   ARVALID          integral    1     'h0       
#   ARREADY          integral    1     'h0       
#   AWADDR           integral    32    'h1150ba  
#   AWVALID          integral    1     'h1       
#   AWREADY          integral    1     'h0       
#   RDATA            integral    32    'h0       
#   RRESP            integral    2     'h0       
#   RVALID           integral    1     'h0       
#   RREADY           integral    1     'h0       
#   WDATA            integral    32    'haa005529
#   WSTRB            integral    4     'h0       
#   WVALID           integral    1     'h1       
#   WREADY           integral    1     'h0       
#   BRESP            integral    2     'h0       
#   BVALID           integral    1     'h0       
#   BREADY           integral    1     'h1       
# -----------------------------------------------
# UVM_INFO ..\DV\TB\AXI_SDRAM_Scoreboard.sv(49) @ 163.0 ns: uvm_test_top.env.axi_sd_scb [AXI_SDRAM_Scoreboard]  Inside write_port_a method. Received axi_pkt On Analysis Imp Port#########################################################################################################
# UVM_INFO ..\DV\TB\AXI_SDRAM_Scoreboard.sv(50) @ 163.0 ns: uvm_test_top.env.axi_sd_scb [AXI_SDRAM_Scoreboard]  Printing inside scoreboard axi_pkt, 
#  -----------------------------------------------
# Name               Type        Size  Value     
# -----------------------------------------------
# uvm_sequence_item  AXI_Packet  -     @705      
#   ARESETn          integral    1     'h0       
#   ARADDR           integral    32    'h0       
#   ARVALID          integral    1     'h0       
#   ARREADY          integral    1     'h0       
#   AWADDR           integral    32    'h1150ba  
#   AWVALID          integral    1     'h1       
#   AWREADY          integral    1     'h0       
#   RDATA            integral    32    'h0       
#   RRESP            integral    2     'h0       
#   RVALID           integral    1     'h0       
#   RREADY           integral    1     'h0       
#   WDATA            integral    32    'haa005529
#   WSTRB            integral    4     'h0       
#   WVALID           integral    1     'h1       
#   WREADY           integral    1     'h0       
#   BRESP            integral    2     'h0       
#   BVALID           integral    1     'h0       
#   BREADY           integral    1     'h1       
# -----------------------------------------------
# 
# ** Error: ../Design/sdram_sim_model/mt48lc16m16a2.v(1114): $period( posedge Clk:159 ns, :165 ns, 7 ns );
#    Time: 165 ns  Iteration: 2  Instance: /tb_top/SIM_Model
# ** Error: ../Design/sdram_sim_model/mt48lc16m16a2.v(1113): $period( negedge Clk:162 ns, :168 ns, 7 ns );
#    Time: 168 ns  Iteration: 1  Instance: /tb_top/SIM_Model
# UVM_INFO ..\DV\TB\..\AXI\AXI_Monitor.sv(86) @ 171.0 ns: uvm_test_top.env.axi_agt.axi_mon [uvm_test_top.env.axi_agt.axi_mon] -------------------------Write_Packet_sampled-------------------------------
# ** Error: ../Design/sdram_sim_model/mt48lc16m16a2.v(1114): $period( posedge Clk:165 ns, :171 ns, 7 ns );
#    Time: 171 ns  Iteration: 2  Instance: /tb_top/SIM_Model
# ** Error: ../Design/sdram_sim_model/mt48lc16m16a2.v(1118): $hold( posedge Clk:171 ns, Ras_n:171 ns, 800 ps );
#    Time: 171 ns  Iteration: 3  Instance: /tb_top/SIM_Model
# ** Error: ../Design/sdram_sim_model/mt48lc16m16a2.v(1117): $hold( posedge Clk:171 ns, Cas_n:171 ns, 800 ps );
#    Time: 171 ns  Iteration: 3  Instance: /tb_top/SIM_Model
# ** Error: ../Design/sdram_sim_model/mt48lc16m16a2.v(1113): $period( negedge Clk:168 ns, :174 ns, 7 ns );
#    Time: 174 ns  Iteration: 1  Instance: /tb_top/SIM_Model
# UVM_INFO ..\DV\TB\..\AXI\AXI_Sequence.sv(210) @ 175.0 ns: reporter@@AXI_Burst_Read_after_Write_Sequence [uvm_test_top.env.axi_agt.axi_seq.axi_seq] ################################-AXI Generated Packet-############################
# UVM_INFO ..\DV\TB\..\AXI\AXI_Driver.sv(27) @ 175.0 ns: uvm_test_top.env.axi_agt.axi_drv [uvm_test_top.env.axi_agt.axi_drv] -------------------------AXI_Driver_packet#####-------------------------------
# -----------------------------------------------------------------------------------------
# Name                           Type        Size  Value                                   
# -----------------------------------------------------------------------------------------
# trans                          AXI_Packet  -     @804                                    
#   ARESETn                      integral    1     'h0                                     
#   ARADDR                       integral    32    'h1150aa                                
#   ARVALID                      integral    1     'h1                                     
#   ARREADY                      integral    1     'h0                                     
#   AWADDR                       integral    32    'h0                                     
#   AWVALID                      integral    1     'h0                                     
#   AWREADY                      integral    1     'h0                                     
#   RDATA                        integral    32    'h0                                     
#   RRESP                        integral    2     'h0                                     
#   RVALID                       integral    1     'h0                                     
#   RREADY                       integral    1     'h1                                     
#   WDATA                        integral    32    'h0                                     
#   WSTRB                        integral    4     'h0                                     
#   WVALID                       integral    1     'h0                                     
#   WREADY                       integral    1     'h0                                     
#   BRESP                        integral    2     'h0                                     
#   BVALID                       integral    1     'h0                                     
#   BREADY                       integral    1     'h0                                     
#   begin_time                   time        64    175.0 ns                                
#   depth                        int         32    'd2                                     
#   parent sequence (name)       string      7     axi_seq                                 
#   parent sequence (full name)  string      40    uvm_test_top.env.axi_agt.axi_seq.axi_seq
#   sequencer                    string      32    uvm_test_top.env.axi_agt.axi_seq        
# -----------------------------------------------------------------------------------------
# tb_top.SIM_Model : at time     177.0 ns ERROR: tRFC violation during Auto Refresh
# ** Error: ../Design/sdram_sim_model/mt48lc16m16a2.v(1114): $period( posedge Clk:171 ns, :177 ns, 7 ns );
#    Time: 177 ns  Iteration: 2  Instance: /tb_top/SIM_Model
# ** Error: ../Design/sdram_sim_model/mt48lc16m16a2.v(1118): $hold( posedge Clk:177 ns, Ras_n:177 ns, 800 ps );
#    Time: 177 ns  Iteration: 3  Instance: /tb_top/SIM_Model
# ** Error: ../Design/sdram_sim_model/mt48lc16m16a2.v(1117): $hold( posedge Clk:177 ns, Cas_n:177 ns, 800 ps );
#    Time: 177 ns  Iteration: 3  Instance: /tb_top/SIM_Model
# UVM_INFO ..\DV\TB\..\AXI\AXI_Monitor.sv(118) @ 179.0 ns: uvm_test_top.env.axi_agt.axi_mon [uvm_test_top.env.axi_agt.axi_mon] -------------------------Read_Packet_sampled-------------------------------
# UVM_INFO ..\DV\TB\..\AXI\AXI_Monitor.sv(45) @ 179.0 ns: uvm_test_top.env.axi_agt.axi_mon [uvm_test_top.env.axi_agt.axi_mon] -------------------------AXI_Monitor_data-------------------------------
# -----------------------------------------------
# Name               Type        Size  Value     
# -----------------------------------------------
# uvm_sequence_item  AXI_Packet  -     @705      
#   ARESETn          integral    1     'h0       
#   ARADDR           integral    32    'h0       
#   ARVALID          integral    1     'h0       
#   ARREADY          integral    1     'h0       
#   AWADDR           integral    32    'h1150bc  
#   AWVALID          integral    1     'h1       
#   AWREADY          integral    1     'h0       
#   RDATA            integral    32    'h0       
#   RRESP            integral    2     'h0       
#   RVALID           integral    1     'h0       
#   RREADY           integral    1     'h0       
#   WDATA            integral    32    'haa00552c
#   WSTRB            integral    4     'h0       
#   WVALID           integral    1     'h1       
#   WREADY           integral    1     'h0       
#   BRESP            integral    2     'h0       
#   BVALID           integral    1     'h0       
#   BREADY           integral    1     'h1       
# -----------------------------------------------
# UVM_INFO ..\DV\TB\AXI_SDRAM_Scoreboard.sv(49) @ 179.0 ns: uvm_test_top.env.axi_sd_scb [AXI_SDRAM_Scoreboard]  Inside write_port_a method. Received axi_pkt On Analysis Imp Port#########################################################################################################
# UVM_INFO ..\DV\TB\AXI_SDRAM_Scoreboard.sv(50) @ 179.0 ns: uvm_test_top.env.axi_sd_scb [AXI_SDRAM_Scoreboard]  Printing inside scoreboard axi_pkt, 
#  -----------------------------------------------
# Name               Type        Size  Value     
# -----------------------------------------------
# uvm_sequence_item  AXI_Packet  -     @705      
#   ARESETn          integral    1     'h0       
#   ARADDR           integral    32    'h0       
#   ARVALID          integral    1     'h0       
#   ARREADY          integral    1     'h0       
#   AWADDR           integral    32    'h1150bc  
#   AWVALID          integral    1     'h1       
#   AWREADY          integral    1     'h0       
#   RDATA            integral    32    'h0       
#   RRESP            integral    2     'h0       
#   RVALID           integral    1     'h0       
#   RREADY           integral    1     'h0       
#   WDATA            integral    32    'haa00552c
#   WSTRB            integral    4     'h0       
#   WVALID           integral    1     'h1       
#   WREADY           integral    1     'h0       
#   BRESP            integral    2     'h0       
#   BVALID           integral    1     'h0       
#   BREADY           integral    1     'h1       
# -----------------------------------------------
# 
# ** Error: ../Design/sdram_sim_model/mt48lc16m16a2.v(1113): $period( negedge Clk:174 ns, :180 ns, 7 ns );
#    Time: 180 ns  Iteration: 1  Instance: /tb_top/SIM_Model
# ** Error: ../Design/sdram_sim_model/mt48lc16m16a2.v(1114): $period( posedge Clk:177 ns, :183 ns, 7 ns );
#    Time: 183 ns  Iteration: 2  Instance: /tb_top/SIM_Model
# ** Error: ../Design/sdram_sim_model/mt48lc16m16a2.v(1113): $period( negedge Clk:180 ns, :186 ns, 7 ns );
#    Time: 186 ns  Iteration: 1  Instance: /tb_top/SIM_Model
# ** Error: ../Design/sdram_sim_model/mt48lc16m16a2.v(1114): $period( posedge Clk:183 ns, :189 ns, 7 ns );
#    Time: 189 ns  Iteration: 2  Instance: /tb_top/SIM_Model
# UVM_INFO ..\DV\TB\..\AXI\AXI_Sequence.sv(210) @ 191.0 ns: reporter@@AXI_Burst_Read_after_Write_Sequence [uvm_test_top.env.axi_agt.axi_seq.axi_seq] ################################-AXI Generated Packet-############################
# UVM_INFO ..\DV\TB\..\AXI\AXI_Driver.sv(27) @ 191.0 ns: uvm_test_top.env.axi_agt.axi_drv [uvm_test_top.env.axi_agt.axi_drv] -------------------------AXI_Driver_packet#####-------------------------------
# -----------------------------------------------------------------------------------------
# Name                           Type        Size  Value                                   
# -----------------------------------------------------------------------------------------
# trans                          AXI_Packet  -     @808                                    
#   ARESETn                      integral    1     'h0                                     
#   ARADDR                       integral    32    'h1150ac                                
#   ARVALID                      integral    1     'h1                                     
#   ARREADY                      integral    1     'h0                                     
#   AWADDR                       integral    32    'h0                                     
#   AWVALID                      integral    1     'h0                                     
#   AWREADY                      integral    1     'h0                                     
#   RDATA                        integral    32    'h0                                     
#   RRESP                        integral    2     'h0                                     
#   RVALID                       integral    1     'h0                                     
#   RREADY                       integral    1     'h1                                     
#   WDATA                        integral    32    'h0                                     
#   WSTRB                        integral    4     'h0                                     
#   WVALID                       integral    1     'h0                                     
#   WREADY                       integral    1     'h0                                     
#   BRESP                        integral    2     'h0                                     
#   BVALID                       integral    1     'h0                                     
#   BREADY                       integral    1     'h0                                     
#   begin_time                   time        64    191.0 ns                                
#   depth                        int         32    'd2                                     
#   parent sequence (name)       string      7     axi_seq                                 
#   parent sequence (full name)  string      40    uvm_test_top.env.axi_agt.axi_seq.axi_seq
#   sequencer                    string      32    uvm_test_top.env.axi_agt.axi_seq        
# -----------------------------------------------------------------------------------------
# ** Error: ../Design/sdram_sim_model/mt48lc16m16a2.v(1113): $period( negedge Clk:186 ns, :192 ns, 7 ns );
#    Time: 192 ns  Iteration: 1  Instance: /tb_top/SIM_Model
# UVM_INFO ..\DV\TB\..\AXI\AXI_Monitor.sv(118) @ 195.0 ns: uvm_test_top.env.axi_agt.axi_mon [uvm_test_top.env.axi_agt.axi_mon] -------------------------Read_Packet_sampled-------------------------------
# ** Error: ../Design/sdram_sim_model/mt48lc16m16a2.v(1114): $period( posedge Clk:189 ns, :195 ns, 7 ns );
#    Time: 195 ns  Iteration: 2  Instance: /tb_top/SIM_Model
# ** Error: ../Design/sdram_sim_model/mt48lc16m16a2.v(1113): $period( negedge Clk:192 ns, :198 ns, 7 ns );
#    Time: 198 ns  Iteration: 1  Instance: /tb_top/SIM_Model
# ** Error: ../Design/sdram_sim_model/mt48lc16m16a2.v(1114): $period( posedge Clk:195 ns, :201 ns, 7 ns );
#    Time: 201 ns  Iteration: 2  Instance: /tb_top/SIM_Model
# UVM_INFO ..\DV\TB\..\AXI\AXI_Monitor.sv(86) @ 203.0 ns: uvm_test_top.env.axi_agt.axi_mon [uvm_test_top.env.axi_agt.axi_mon] -------------------------Write_Packet_sampled-------------------------------
# UVM_INFO ..\DV\TB\..\AXI\AXI_Monitor.sv(45) @ 203.0 ns: uvm_test_top.env.axi_agt.axi_mon [uvm_test_top.env.axi_agt.axi_mon] -------------------------AXI_Monitor_data-------------------------------
# ---------------------------------------------
# Name               Type        Size  Value   
# ---------------------------------------------
# uvm_sequence_item  AXI_Packet  -     @705    
#   ARESETn          integral    1     'h0     
#   ARADDR           integral    32    'h1150aa
#   ARVALID          integral    1     'h1     
#   ARREADY          integral    1     'h0     
#   AWADDR           integral    32    'h0     
#   AWVALID          integral    1     'h0     
#   AWREADY          integral    1     'h0     
#   RDATA            integral    32    'h0     
#   RRESP            integral    2     'h0     
#   RVALID           integral    1     'h0     
#   RREADY           integral    1     'h0     
#   WDATA            integral    32    'h0     
#   WSTRB            integral    4     'h0     
#   WVALID           integral    1     'h0     
#   WREADY           integral    1     'h0     
#   BRESP            integral    2     'h0     
#   BVALID           integral    1     'h0     
#   BREADY           integral    1     'h0     
# ---------------------------------------------
# UVM_INFO ..\DV\TB\AXI_SDRAM_Scoreboard.sv(49) @ 203.0 ns: uvm_test_top.env.axi_sd_scb [AXI_SDRAM_Scoreboard]  Inside write_port_a method. Received axi_pkt On Analysis Imp Port#########################################################################################################
# UVM_INFO ..\DV\TB\AXI_SDRAM_Scoreboard.sv(50) @ 203.0 ns: uvm_test_top.env.axi_sd_scb [AXI_SDRAM_Scoreboard]  Printing inside scoreboard axi_pkt, 
#  ---------------------------------------------
# Name               Type        Size  Value   
# ---------------------------------------------
# uvm_sequence_item  AXI_Packet  -     @705    
#   ARESETn          integral    1     'h0     
#   ARADDR           integral    32    'h1150aa
#   ARVALID          integral    1     'h1     
#   ARREADY          integral    1     'h0     
#   AWADDR           integral    32    'h0     
#   AWVALID          integral    1     'h0     
#   AWREADY          integral    1     'h0     
#   RDATA            integral    32    'h0     
#   RRESP            integral    2     'h0     
#   RVALID           integral    1     'h0     
#   RREADY           integral    1     'h0     
#   WDATA            integral    32    'h0     
#   WSTRB            integral    4     'h0     
#   WVALID           integral    1     'h0     
#   WREADY           integral    1     'h0     
#   BRESP            integral    2     'h0     
#   BVALID           integral    1     'h0     
#   BREADY           integral    1     'h0     
# ---------------------------------------------
# 
# ** Error: ../Design/sdram_sim_model/mt48lc16m16a2.v(1113): $period( negedge Clk:198 ns, :204 ns, 7 ns );
#    Time: 204 ns  Iteration: 1  Instance: /tb_top/SIM_Model
# ** Error: ../Design/sdram_sim_model/mt48lc16m16a2.v(1114): $period( posedge Clk:201 ns, :207 ns, 7 ns );
#    Time: 207 ns  Iteration: 2  Instance: /tb_top/SIM_Model
# UVM_INFO ..\DV\TB\..\AXI\AXI_Sequence.sv(210) @ 207.0 ns: reporter@@AXI_Burst_Read_after_Write_Sequence [uvm_test_top.env.axi_agt.axi_seq.axi_seq] ################################-AXI Generated Packet-############################
# UVM_INFO ..\DV\TB\..\AXI\AXI_Driver.sv(27) @ 207.0 ns: uvm_test_top.env.axi_agt.axi_drv [uvm_test_top.env.axi_agt.axi_drv] -------------------------AXI_Driver_packet#####-------------------------------
# -----------------------------------------------------------------------------------------
# Name                           Type        Size  Value                                   
# -----------------------------------------------------------------------------------------
# trans                          AXI_Packet  -     @812                                    
#   ARESETn                      integral    1     'h0                                     
#   ARADDR                       integral    32    'h1150ae                                
#   ARVALID                      integral    1     'h1                                     
#   ARREADY                      integral    1     'h0                                     
#   AWADDR                       integral    32    'h0                                     
#   AWVALID                      integral    1     'h0                                     
#   AWREADY                      integral    1     'h0                                     
#   RDATA                        integral    32    'h0                                     
#   RRESP                        integral    2     'h0                                     
#   RVALID                       integral    1     'h0                                     
#   RREADY                       integral    1     'h1                                     
#   WDATA                        integral    32    'h0                                     
#   WSTRB                        integral    4     'h0                                     
#   WVALID                       integral    1     'h0                                     
#   WREADY                       integral    1     'h0                                     
#   BRESP                        integral    2     'h0                                     
#   BVALID                       integral    1     'h0                                     
#   BREADY                       integral    1     'h0                                     
#   begin_time                   time        64    207.0 ns                                
#   depth                        int         32    'd2                                     
#   parent sequence (name)       string      7     axi_seq                                 
#   parent sequence (full name)  string      40    uvm_test_top.env.axi_agt.axi_seq.axi_seq
#   sequencer                    string      32    uvm_test_top.env.axi_agt.axi_seq        
# -----------------------------------------------------------------------------------------
# ** Error: ../Design/sdram_sim_model/mt48lc16m16a2.v(1113): $period( negedge Clk:204 ns, :210 ns, 7 ns );
#    Time: 210 ns  Iteration: 1  Instance: /tb_top/SIM_Model
# UVM_INFO ..\DV\TB\..\AXI\AXI_Monitor.sv(118) @ 211.0 ns: uvm_test_top.env.axi_agt.axi_mon [uvm_test_top.env.axi_agt.axi_mon] -------------------------Read_Packet_sampled-------------------------------
# ** Error: ../Design/sdram_sim_model/mt48lc16m16a2.v(1114): $period( posedge Clk:207 ns, :213 ns, 7 ns );
#    Time: 213 ns  Iteration: 2  Instance: /tb_top/SIM_Model
